Circuit: * C:\users\jose\Documents\tfg\ltspice\osc3.asc

Warning: Multiple definitions of model "2scr375p" Type: BJT
Warning: Multiple definitions of model "bc857b" Type: BJT
Warning: Multiple definitions of model "bc847c" Type: BJT
Warning: Multiple definitions of model "bc847b" Type: BJT
Direct Newton iteration for .op point succeeded.
Semiconductor Device Operating Points:
                        --- Bipolar Transistors ---
Name:       q1
Model:    2n2222
Ib:       1.24e-08
Ic:       2.55e-06
Vbe:      5.00e-01
Vbc:     -2.50e+00
Vce:      3.00e+00
BetaDC:   2.05e+02
Gm:       9.84e-05
Rpi:      2.08e+06
Rx:       1.00e+01
Ro:       4.03e+07
Cbe:      3.49e-11
Cbc:      4.93e-12
Cjs:      0.00e+00
BetaAC:   2.05e+02
Cbx:      0.00e+00
Ft:       3.93e+05



Date: Fri Jul 21 00:43:13 2023
Total elapsed time: 0.036 seconds.

tnom = 27
temp = 27
method = trap
totiter = 6
traniter = 0
tranpoints = 0
accept = 0
rejected = 0
matrix size = 9
fillins = 1
solver = Normal
Avg thread counts: 4.0/0.0/4.0/4.0
Matrix Compiler1: 600 bytes object code size
Matrix Compiler2: 723 bytes object code size
